
T1A30 000:016 SEGGER J-Link V4.68a Log File (0000ms, 0016ms total)
T1A30 000:016 DLL Compiled: Apr 12 2013 13:26:50 (0000ms, 0016ms total)
T1A30 000:016 Logging started @ 2015-04-10 18:57 (0000ms, 0016ms total)
T1A30 000:016 JLINK_SetWarnOutHandler(...) (0000ms, 0016ms total)
T1A30 000:016 JLINK_OpenEx(...)
Firmware: J-Link ARM V7 compiled Jun 20 2012 19:45:53
Hardware: V7.00
S/N: 57000442
Feature(s): RDI, FlashBP, FlashDL, JFlash, GDB  returns O.K. (0010ms, 0026ms total)
T1A30 000:026 JLINK_SetErrorOutHandler(...) (0000ms, 0026ms total)
T1A30 000:026 JLINK_ExecCommand("ProjectFile = "C:\Game_in_1986BE92QI\JLinkSettings.ini"", ...)
                JLINK_AddMirrorAreaEx(Addr = 0x00000000, Size = 0x00000000) (0000ms, 0000ms total)
              Device "UNSPECIFIED" selected (0 KB flash, 0 KB RAM).  returns 0x00 (0000ms, 0026ms total)
T1A30 000:026 JLINK_ExecCommand("Device = MDR1986BE92", ...)
                JLINK_AddMirrorAreaEx(Addr = 0x00000000, Size = 0x00000000) (0000ms, 0000ms total)
              Device "UNSPECIFIED" selected (0 KB flash, 0 KB RAM).  returns 0x00 (0001ms, 0027ms total)
T1A30 000:027 JLINK_ExecCommand("DisableConnectionTimeout", ...)  returns 0x00 (0000ms, 0027ms total)
T1A30 000:027 JLINK_GetHardwareVersion()  returns 0x11170 (0000ms, 0027ms total)
T1A30 000:027 JLINK_GetDLLVersion()  returns 46801 (0000ms, 0027ms total)
T1A30 000:027 JLINK_GetFirmwareString(...) (0000ms, 0027ms total)
T1A30 000:028 JLINK_GetDLLVersion()  returns 46801 (0000ms, 0027ms total)
T1A30 000:028 JLINK_GetCompileDateTime() (0000ms, 0027ms total)
T1A30 000:028 JLINK_GetFirmwareString(...) (0000ms, 0027ms total)
T1A30 000:028 JLINK_GetHardwareVersion()  returns 0x11170 (0000ms, 0027ms total)
T1A30 000:029 JLINK_TIF_Select(JLINKARM_TIF_SWD)  returns 0x00 (0001ms, 0028ms total)
T1A30 000:030 JLINK_SetSpeed(1000) (0001ms, 0029ms total)
T1A30 000:031 JLINK_GetId() >0x108 TIF>Found SWD-DP with ID 0x2BA01477 >0x0D TIF> >0x21 TIF> >0x0D TIF> >0x28 TIF> >0x0D TIF> >0x28 TIF> >0x0D TIF> >0x21 TIF> >0x0D TIF> >0x21 TIF> >0x0D TIF> >0x28 TIF> >0x0D TIF> >0x21 TIF> >0x0D TIF> >0x21 TIF> >0x0D TIF> >0x21 TIF> >0x0D TIF> >0x21 TIF> >0x0D TIF> >0x28 TIF> >0x0D TIF> >0x21 TIF> >0x0D TIF> >0x28 TIF> >0x0D TIF> >0x28 TIF> >0x0D TIF> >0x21 TIF> >0x0D TIF> >0x21 TIF> >0x0D TIF> >0x28 TIF> >0x0D TIF> >0x21 TIF> >0x0D TIF> >0x21 TIF> >0x0D TIF>
 >0x28 TIF> >0x0D TIF> >0x28 TIF> >0x0D TIF> >0x28 TIF> >0x0D TIF> >0x21 TIF> >0x0D TIF> >0x21 TIF> >0x0D TIF> >0x28 TIF> >0x0D TIF> >0x28 TIF> >0x0D TIF> >0x28 TIF> >0x0D TIF> >0x21 TIF> >0x0D TIF> >0x21 TIF> >0x0D TIF> >0x21 TIF>TPIU fitted. >0x0D TIF> >0x28 TIF> >0x0D TIF> >0x21 TIF> >0x0D TIF> >0x21 TIF> >0x0D TIF> >0x28 TIF> >0x0D TIF> >0x21 TIF> >0x0D TIF> >0x21 TIF>FPUnit: 6 code (BP) slots and 2 literal slots >0x0D TIF> >0x28 TIF> >0x0D TIF> >0x21 TIF> >0x0D TIF> >0x21 TIF> >0x0D TIF> >0x28 TIF>
 >0x0D TIF> >0x21 TIF> >0x0D TIF> >0x21 TIF> >0x0D TIF> >0x28 TIF> >0x0D TIF> >0x21 TIF> >0x0D TIF> >0x21 TIF> >0x0D TIF> >0x28 TIF> >0x0D TIF> >0x21 TIF> >0x0D TIF> >0x21 TIF>Found Cortex-M3 r2p0, Little endian. >0x0D TIF> >0x28 TIF> >0x0D TIF> >0x21 TIF>  returns 0x2BA01477 (0051ms, 0080ms total)
T1A30 000:082 JLINK_GetDLLVersion()  returns 46801 (0000ms, 0080ms total)
T1A30 000:082 JLINK_CORE_GetFound()  returns 0x30000FF (0000ms, 0080ms total)
T1A30 000:082 JLINK_ReadMem (0xE00FF000, 0x0020 Bytes, ...) -- CPU is running -- CPU_ReadMem(32 bytes @ 0xE00FF000) -- Data:  03 F0 F0 FF 03 20 F0 FF 03 30 F0 FF 03 10 F0 FF ...  returns 0x00 (0001ms, 0081ms total)
T1A30 000:083 JLINK_ReadMem (0xE000EFF0, 0x0010 Bytes, ...) -- CPU is running -- CPU_ReadMem(16 bytes @ 0xE000EFF0) -- Data:  0D 00 00 00 E0 00 00 00 05 00 00 00 B1 00 00 00  returns 0x00 (0001ms, 0082ms total)
T1A30 000:084 JLINK_ReadMem (0xE000EFD0, 0x0020 Bytes, ...) -- CPU is running -- CPU_ReadMem(32 bytes @ 0xE000EFD0) -- Data:  04 00 00 00 00 00 00 00 00 00 00 00 00 00 00 00 ...  returns 0x00 (0002ms, 0084ms total)
T1A30 000:086 JLINK_ReadMem (0xE0001FF0, 0x0010 Bytes, ...) -- CPU is running -- CPU_ReadMem(16 bytes @ 0xE0001FF0) -- Data:  0D 00 00 00 E0 00 00 00 05 00 00 00 B1 00 00 00  returns 0x00 (0002ms, 0086ms total)
T1A30 000:088 JLINK_ReadMem (0xE0001FD0, 0x0020 Bytes, ...) -- CPU is running -- CPU_ReadMem(32 bytes @ 0xE0001FD0) -- Data:  04 00 00 00 00 00 00 00 00 00 00 00 00 00 00 00 ...  returns 0x00 (0001ms, 0087ms total)
T1A30 000:089 JLINK_ReadMem (0xE0002FF0, 0x0010 Bytes, ...) -- CPU is running -- CPU_ReadMem(16 bytes @ 0xE0002FF0) -- Data:  0D 00 00 00 E0 00 00 00 05 00 00 00 B1 00 00 00  returns 0x00 (0001ms, 0088ms total)
T1A30 000:090 JLINK_ReadMem (0xE0002FD0, 0x0020 Bytes, ...) -- CPU is running -- CPU_ReadMem(32 bytes @ 0xE0002FD0) -- Data:  04 00 00 00 00 00 00 00 00 00 00 00 00 00 00 00 ...  returns 0x00 (0002ms, 0090ms total)
T1A30 000:092 JLINK_ReadMem (0xE0000FF0, 0x0010 Bytes, ...) -- CPU is running -- CPU_ReadMem(16 bytes @ 0xE0000FF0) -- Data:  0D 00 00 00 E0 00 00 00 05 00 00 00 B1 00 00 00  returns 0x00 (0001ms, 0091ms total)
T1A30 000:093 JLINK_ReadMem (0xE0000FD0, 0x0020 Bytes, ...) -- CPU is running -- CPU_ReadMem(32 bytes @ 0xE0000FD0) -- Data:  04 00 00 00 00 00 00 00 00 00 00 00 00 00 00 00 ...  returns 0x00 (0001ms, 0092ms total)
T1A30 000:094 JLINK_ReadMem (0xE0040FF0, 0x0010 Bytes, ...) -- CPU is running -- CPU_ReadMem(16 bytes @ 0xE0040FF0) -- Data:  0D 00 00 00 90 00 00 00 05 00 00 00 B1 00 00 00  returns 0x00 (0001ms, 0093ms total)
T1A30 000:095 JLINK_ReadMem (0xE0040FD0, 0x0020 Bytes, ...) -- CPU is running -- CPU_ReadMem(32 bytes @ 0xE0040FD0) -- Data:  04 00 00 00 00 00 00 00 00 00 00 00 00 00 00 00 ...  returns 0x00 (0001ms, 0094ms total)
T1A30 000:096 JLINK_ReadMemU32(0xE000ED00, 0x0001 Items, ...) -- CPU is running -- CPU_ReadMem(4 bytes @ 0xE000ED00) -- Data:  30 C2 2F 41  returns 0x01 (0001ms, 0095ms total)
T1A30 000:097 JLINK_SetResetType(JLINKARM_RESET_TYPE_NORMAL)  returns JLINKARM_RESET_TYPE_NORMAL (0000ms, 0095ms total)
T1A30 000:097 JLINK_Reset() -- CPU_WriteMem(4 bytes @ 0xE0002000) (0019ms, 0114ms total)
T1A30 000:116 JLINK_ReadReg(R15)  returns 0x000000A6 (0000ms, 0114ms total)
T1A30 000:116 JLINK_ReadReg(XPSR)  returns 0x01000000 (0000ms, 0114ms total)
T1A30 000:116 JLINK_Halt()  returns 0x00 (0000ms, 0114ms total)
T1A30 000:116 JLINK_IsHalted()  returns TRUE (0000ms, 0114ms total)
T1A30 000:116 JLINK_ReadMemU32(0xE000EDF0, 0x0001 Items, ...) -- CPU_ReadMem(4 bytes @ 0xE000EDF0) -- Data:  03 00 03 00  returns 0x01 (0001ms, 0115ms total)
T1A30 000:117 JLINK_WriteU32(0xE000EDF0, 0xA05F0003) -- CPU_WriteMem(4 bytes @ 0xE000EDF0)  returns 0x00 (0001ms, 0116ms total)
T1A30 000:118 JLINK_WriteU32(0xE000EDFC, 0x01000000) -- CPU_WriteMem(4 bytes @ 0xE000EDFC)  returns 0x00 (0001ms, 0117ms total)
T1A30 000:119 JLINK_GetHWStatus(...)  returns 0x00 (0001ms, 0118ms total)
T1A30 000:120 JLINK_GetNumBPUnits(Type = 0xFFFFFF00)  returns 0x06 (0000ms, 0118ms total)
T1A30 000:120 JLINK_GetNumBPUnits(Type = 0xF0)  returns 0x2000 (0000ms, 0118ms total)
T1A30 000:120 JLINK_GetNumWPUnits()  returns 0x04 (0000ms, 0118ms total)
T1A30 000:120 JLINK_GetSpeed()  returns 0x3E8 (0000ms, 0118ms total)
T1A30 000:120 JLINK_ReadMemU32(0xE000E004, 0x0001 Items, ...) -- CPU_ReadMem(4 bytes @ 0xE000E004) -- Data:  00 00 00 00  returns 0x01 (0001ms, 0119ms total)
T1A30 000:121 JLINK_ReadMemU32(0xE000E004, 0x0001 Items, ...) -- CPU_ReadMem(4 bytes @ 0xE000E004) -- Data:  00 00 00 00  returns 0x01 (0001ms, 0120ms total)
T1A30 000:122 JLINK_WriteMem(0xE0001000, 0x001C Bytes, ...) -- Data:  01 00 00 00 00 00 00 00 00 00 00 00 00 00 00 00 ... -- CPU_WriteMem(28 bytes @ 0xE0001000)  returns 0x1C (0002ms, 0122ms total)
T1A30 000:124 JLINK_ReadMem (0xE0001000, 0x001C Bytes, ...) -- CPU_ReadMem(28 bytes @ 0xE0001000) -- Data:  01 00 00 40 00 00 00 00 00 00 00 00 00 00 00 00 ...  returns 0x00 (0001ms, 0123ms total)
T1A30 000:125 JLINK_ReadReg(R15)  returns 0x000000A6 (0000ms, 0123ms total)
T1A30 000:125 JLINK_ReadReg(XPSR)  returns 0x01000000 (0000ms, 0123ms total)
T1A30 000:184 JLINK_SetResetType(JLINKARM_RESET_TYPE_NORMAL)  returns JLINKARM_RESET_TYPE_NORMAL (0000ms, 0123ms total)
T1A30 000:184 JLINK_Reset() -- CPU_WriteMem(4 bytes @ 0xE0002000) (0018ms, 0141ms total)
T1A30 000:202 JLINK_ReadReg(R15)  returns 0x000000A6 (0000ms, 0141ms total)
T1A30 000:202 JLINK_ReadReg(XPSR)  returns 0x01000000 (0000ms, 0141ms total)
T1A30 000:202 JLINK_ReadMem (0x000000A6, 0x0002 Bytes, ...) -- CPU_ReadMem(2 bytes @ 0x000000A6) -- Data:  98 48  returns 0x00 (0001ms, 0142ms total)
T1A30 000:203 JLINK_ReadMem (0x000000A8, 0x003C Bytes, ...) -- CPU_ReadMem(60 bytes @ 0x000000A8) -- Data:  98 4D 28 60 98 4F 3E 68 70 05 02 D3 C6 F3 02 31 ...  returns 0x00 (0003ms, 0145ms total)
T1A30 000:232 JLINK_ReadMem (0x400D8000, 0x0050 Bytes, ...) -- CPU_ReadMem(80 bytes @ 0x400D8000) -- Data:  00 02 10 80 00 01 00 00 00 00 40 10 00 08 11 04 ...  returns 0x00 (0002ms, 0147ms total)
T1A30 000:234 JLINK_ReadMem (0x400D8050, 0x0004 Bytes, ...) -- CPU_ReadMem(4 bytes @ 0x400D8050) -- Data:  00 00 00 00  returns 0x00 (0002ms, 0149ms total)
T1A30 000:254 JLINK_ReadMem (0x400B8000, 0x001C Bytes, ...) -- CPU_ReadMem(28 bytes @ 0x400B8000) -- Data:  FF FF 00 00 00 00 00 00 00 00 00 00 00 00 00 00 ...  returns 0x00 (0001ms, 0150ms total)
T1A30 000:255 JLINK_ReadMem (0x400B801C, 0x0004 Bytes, ...) -- CPU_ReadMem(4 bytes @ 0x400B801C) -- Data:  00 00 00 00  returns 0x00 (0001ms, 0151ms total)
T1A30 000:275 JLINK_ReadMem (0x40020000, 0x002C Bytes, ...) -- CPU_ReadMem(44 bytes @ 0x40020000) -- Data:  00 00 00 00 00 00 00 00 00 00 00 00 00 00 00 00 ...  returns 0x00 (0002ms, 0153ms total)
T1A30 000:277 JLINK_ReadMem (0x4002002C, 0x0004 Bytes, ...) -- CPU_ReadMem(4 bytes @ 0x4002002C) -- Data:  00 00 00 00  returns 0x00 (0001ms, 0154ms total)
T1A30 000:923 JLINK_ReadMem (0x08000250, 0x003C Bytes, ...) -- CPU_ReadMem(60 bytes @ 0x08000250) -- Data:  0B 49 49 68 21 F4 70 61 09 4A 51 60 11 46 49 68 ...  returns 0x00 (0002ms, 0156ms total)
T21C8 001:058 JLINK_SetBPEx(Addr = 0x080003E0, Type = 0xFFFFFFF2)  returns 0x00000001 (0000ms, 0156ms total)
T21C8 001:058 JLINK_SetBPEx(Addr = 0x0800041E, Type = 0xFFFFFFF2)  returns 0x00000002 (0000ms, 0156ms total)
T21C8 001:058 JLINK_Go() -- CPU_WriteMem(4 bytes @ 0xE0002008) -- CPU_WriteMem(4 bytes @ 0xE000200C) -- CPU_WriteMem(4 bytes @ 0xE0002010) -- CPU_WriteMem(4 bytes @ 0xE0002014) -- CPU_WriteMem(4 bytes @ 0xE0002018) -- CPU_WriteMem(4 bytes @ 0xE000201C) (0007ms, 0163ms total)
T21C8 001:165 JLINK_IsHalted()  returns TRUE (0008ms, 0171ms total)
T21C8 001:173 JLINK_Halt()  returns 0x00 (0000ms, 0163ms total)
T21C8 001:173 JLINK_IsHalted()  returns TRUE (0000ms, 0163ms total)
T21C8 001:173 JLINK_IsHalted()  returns TRUE (0000ms, 0163ms total)
T21C8 001:173 JLINK_IsHalted()  returns TRUE (0000ms, 0163ms total)
T21C8 001:173 JLINK_ReadReg(R15)  returns 0x080003E0 (0000ms, 0163ms total)
T21C8 001:173 JLINK_ReadReg(XPSR)  returns 0x21000000 (0000ms, 0163ms total)
T21C8 001:173 JLINK_ClrBPEx(BPHandle = 0x00000001)  returns 0x00 (0000ms, 0163ms total)
T21C8 001:173 JLINK_ClrBPEx(BPHandle = 0x00000002)  returns 0x00 (0000ms, 0163ms total)
T21C8 001:173 JLINK_ReadMemU32(0xE000ED30, 0x0001 Items, ...) -- CPU_ReadMem(4 bytes @ 0xE000ED30) -- Data:  0B 00 00 00  returns 0x01 (0001ms, 0164ms total)
T21C8 001:174 JLINK_ReadMemU32(0xE0001028, 0x0001 Items, ...) -- CPU_ReadMem(4 bytes @ 0xE0001028) -- Data:  00 00 00 00  returns 0x01 (0001ms, 0165ms total)
T21C8 001:175 JLINK_ReadMemU32(0xE0001038, 0x0001 Items, ...) -- CPU_ReadMem(4 bytes @ 0xE0001038) -- Data:  00 02 00 00  returns 0x01 (0001ms, 0166ms total)
T21C8 001:176 JLINK_ReadMemU32(0xE0001048, 0x0001 Items, ...) -- CPU_ReadMem(4 bytes @ 0xE0001048) -- Data:  00 00 00 00  returns 0x01 (0001ms, 0167ms total)
T21C8 001:177 JLINK_ReadMemU32(0xE0001058, 0x0001 Items, ...) -- CPU_ReadMem(4 bytes @ 0xE0001058) -- Data:  00 00 00 00  returns 0x01 (0001ms, 0168ms total)
T21C8 001:178 JLINK_ReadReg(R0)  returns 0x20000068 (0000ms, 0168ms total)
T21C8 001:178 JLINK_ReadReg(R1)  returns 0x20000268 (0000ms, 0168ms total)
T21C8 001:178 JLINK_ReadReg(R2)  returns 0x20000268 (0000ms, 0168ms total)
T21C8 001:178 JLINK_ReadReg(R3)  returns 0x20000268 (0000ms, 0168ms total)
T21C8 001:178 JLINK_ReadReg(R4)  returns 0x00000000 (0000ms, 0168ms total)
T21C8 001:178 JLINK_ReadReg(R5)  returns 0x20000008 (0000ms, 0168ms total)
T21C8 001:178 JLINK_ReadReg(R6)  returns 0x00000000 (0000ms, 0168ms total)
T21C8 001:178 JLINK_ReadReg(R7)  returns 0x00000000 (0000ms, 0168ms total)
T21C8 001:178 JLINK_ReadReg(R8)  returns 0x00000000 (0000ms, 0168ms total)
T21C8 001:178 JLINK_ReadReg(R9)  returns 0x00000000 (0000ms, 0168ms total)
T21C8 001:178 JLINK_ReadReg(R10)  returns 0x0800045C (0000ms, 0168ms total)
T21C8 001:178 JLINK_ReadReg(R11)  returns 0x00000000 (0000ms, 0168ms total)
T21C8 001:178 JLINK_ReadReg(R12)  returns 0x20000048 (0000ms, 0168ms total)
T21C8 001:178 JLINK_ReadReg(R13)  returns 0x20000668 (0000ms, 0168ms total)
T21C8 001:178 JLINK_ReadReg(R14)  returns 0x0800014B (0000ms, 0168ms total)
T21C8 001:178 JLINK_ReadReg(R15)  returns 0x080003E0 (0000ms, 0168ms total)
T21C8 001:178 JLINK_ReadReg(XPSR)  returns 0x21000000 (0000ms, 0168ms total)
T21C8 001:178 JLINK_ReadReg(MSP)  returns 0x20000668 (0000ms, 0168ms total)
T21C8 001:178 JLINK_ReadReg(PSP)  returns 0x00000000 (0000ms, 0168ms total)
T21C8 001:178 JLINK_ReadReg(CFBP)  returns 0x00000000 (0000ms, 0168ms total)
T1A30 001:179 JLINK_ReadMemU32(0xE0001004, 0x0001 Items, ...) -- CPU_ReadMem(4 bytes @ 0xE0001004) -- Data:  DC 05 00 00  returns 0x01 (0001ms, 0169ms total)
T1A30 001:181 JLINK_ReadMem (0x400D8000, 0x0050 Bytes, ...) -- CPU_ReadMem(80 bytes @ 0x400D8000) -- Data:  00 02 10 80 00 01 00 00 00 00 40 10 00 08 11 04 ...  returns 0x00 (0003ms, 0172ms total)
T1A30 001:184 JLINK_ReadMem (0x400D8050, 0x0004 Bytes, ...) -- CPU_ReadMem(4 bytes @ 0x400D8050) -- Data:  00 00 00 00  returns 0x00 (0002ms, 0174ms total)
T1A30 001:186 JLINK_ReadMem (0x40020000, 0x002C Bytes, ...) -- CPU_ReadMem(44 bytes @ 0x40020000) -- Data:  00 00 00 00 00 00 00 00 00 00 00 00 00 00 00 00 ...  returns 0x00 (0002ms, 0176ms total)
T1A30 001:188 JLINK_ReadMem (0x4002002C, 0x0004 Bytes, ...) -- CPU_ReadMem(4 bytes @ 0x4002002C) -- Data:  00 00 00 00  returns 0x00 (0002ms, 0178ms total)
T1A30 001:192 JLINK_ReadMem (0x400B8000, 0x001C Bytes, ...) -- CPU_ReadMem(28 bytes @ 0x400B8000) -- Data:  00 00 00 00 00 00 00 00 00 00 00 00 00 00 00 00 ...  returns 0x00 (0002ms, 0180ms total)
T1A30 001:194 JLINK_ReadMem (0x400B801C, 0x0004 Bytes, ...) -- CPU_ReadMem(4 bytes @ 0x400B801C) -- Data:  00 00 00 00  returns 0x00 (0001ms, 0181ms total)
T1A30 001:198 JLINK_ReadMem (0x080003E0, 0x0020 Bytes, ...) -- CPU_ReadMem(64 bytes @ 0x080003C0) -- Updating DA cache (64 bytes @ 0x080003C0) -- Read from DA cache (32 bytes @ 0x080003E0) -- Data:  FF F7 50 FF FF F7 5A FF FF F7 12 FF 01 20 11 49 ...  returns 0x00 (0002ms, 0183ms total)
T1A30 001:200 JLINK_ReadMem (0x08000400, 0x001C Bytes, ...) -- CPU_ReadMem(64 bytes @ 0x08000400) -- Updating DA cache (64 bytes @ 0x08000400) -- Read from DA cache (28 bytes @ 0x08000400) -- Data:  40 F0 01 00 0C 49 08 60 4F F4 7A 70 FF F7 16 FF ...  returns 0x00 (0002ms, 0185ms total)
T21C8 001:298 JLINK_SetBPEx(Addr = 0x0800041E, Type = 0xFFFFFFF2)  returns 0x00000003 (0000ms, 0185ms total)
T21C8 001:298 JLINK_Go() -- CPU_WriteMem(4 bytes @ 0xE0002008) -- CPU_WriteMem(4 bytes @ 0xE000200C) (0003ms, 0188ms total)
T21C8 001:402 JLINK_IsHalted()  returns FALSE (0001ms, 0189ms total)
T21C8 001:503 JLINK_IsHalted()  returns FALSE (0000ms, 0188ms total)
T21C8 001:604 JLINK_IsHalted()  returns FALSE (0000ms, 0188ms total)
T21C8 001:706 JLINK_IsHalted()  returns FALSE (0001ms, 0189ms total)
T21C8 001:807 JLINK_ReadMemU32(0xE0001004, 0x0001 Items, ...) -- CPU is running -- CPU_ReadMem(4 bytes @ 0xE0001004) -- Data:  39 D5 32 00  returns 0x01 (0001ms, 0189ms total)
T1A30 001:808 JLINK_ReadMem (0x400D8000, 0x0050 Bytes, ...) -- CPU is running -- CPU_ReadMem(80 bytes @ 0x400D8000) -- Data:  00 02 10 80 00 01 00 00 00 00 40 10 00 08 11 04 ...  returns 0x00 (0004ms, 0193ms total)
T1A30 001:812 JLINK_ReadMem (0x400D8050, 0x0004 Bytes, ...) -- CPU is running -- CPU_ReadMem(4 bytes @ 0x400D8050) -- Data:  00 00 00 00  returns 0x00 (0001ms, 0194ms total)
T1A30 001:813 JLINK_ReadMem (0x40020000, 0x002C Bytes, ...) -- CPU is running -- CPU_ReadMem(44 bytes @ 0x40020000) -- Data:  00 00 00 00 00 00 00 00 00 00 00 00 00 00 00 00 ...  returns 0x00 (0002ms, 0196ms total)
T1A30 001:815 JLINK_ReadMem (0x4002002C, 0x0004 Bytes, ...) -- CPU is running -- CPU_ReadMem(4 bytes @ 0x4002002C) -- Data:  00 00 00 00  returns 0x00 (0002ms, 0198ms total)
T1A30 001:819 JLINK_ReadMem (0x400B8000, 0x001C Bytes, ...) -- CPU is running -- CPU_ReadMem(28 bytes @ 0x400B8000) -- Data:  FF FF 00 00 01 00 00 00 00 00 00 00 01 00 00 00 ...  returns 0x00 (0002ms, 0200ms total)
T1A30 001:821 JLINK_ReadMem (0x400B801C, 0x0004 Bytes, ...) -- CPU is running -- CPU_ReadMem(4 bytes @ 0x400B801C) -- Data:  00 00 00 00  returns 0x00 (0001ms, 0201ms total)
T21C8 001:823 JLINK_IsHalted()  returns FALSE (0000ms, 0201ms total)
T21C8 001:924 JLINK_IsHalted()  returns FALSE (0001ms, 0202ms total)
T21C8 002:025 JLINK_IsHalted()  returns FALSE (0001ms, 0202ms total)
T21C8 002:126 JLINK_IsHalted()  returns FALSE (0001ms, 0202ms total)
T21C8 002:228 JLINK_IsHalted()  returns FALSE (0001ms, 0202ms total)
T21C8 002:330 JLINK_ReadMemU32(0xE0001004, 0x0001 Items, ...) -- CPU is running -- CPU_ReadMem(4 bytes @ 0xE0001004) -- Data:  8D 47 67 00  returns 0x01 (0001ms, 0202ms total)
T1A30 002:332 JLINK_ReadMem (0x400D8000, 0x0050 Bytes, ...) -- CPU is running -- CPU_ReadMem(80 bytes @ 0x400D8000) -- Data:  00 02 10 80 00 01 00 00 00 00 40 10 00 08 11 04 ...  returns 0x00 (0003ms, 0205ms total)
T1A30 002:335 JLINK_ReadMem (0x400D8050, 0x0004 Bytes, ...) -- CPU is running -- CPU_ReadMem(4 bytes @ 0x400D8050) -- Data:  00 00 00 00  returns 0x00 (0001ms, 0206ms total)
T1A30 002:336 JLINK_ReadMem (0x40020000, 0x002C Bytes, ...) -- CPU is running -- CPU_ReadMem(44 bytes @ 0x40020000) -- Data:  00 00 00 00 00 00 00 00 00 00 00 00 00 00 00 00 ...  returns 0x00 (0002ms, 0208ms total)
T1A30 002:338 JLINK_ReadMem (0x4002002C, 0x0004 Bytes, ...) -- CPU is running -- CPU_ReadMem(4 bytes @ 0x4002002C) -- Data:  00 00 00 00  returns 0x00 (0001ms, 0209ms total)
T1A30 002:339 JLINK_ReadMem (0x400B8000, 0x001C Bytes, ...) -- CPU is running -- CPU_ReadMem(28 bytes @ 0x400B8000) -- Data:  FF FF 00 00 01 00 00 00 00 00 00 00 01 00 00 00 ...  returns 0x00 (0001ms, 0210ms total)
T1A30 002:340 JLINK_ReadMem (0x400B801C, 0x0004 Bytes, ...) -- CPU is running -- CPU_ReadMem(4 bytes @ 0x400B801C) -- Data:  00 00 00 00  returns 0x00 (0001ms, 0211ms total)
T21C8 002:342 JLINK_IsHalted()  returns FALSE (0000ms, 0211ms total)
T21C8 002:444 JLINK_IsHalted()  returns FALSE (0001ms, 0212ms total)
T21C8 002:546 JLINK_IsHalted()  returns FALSE (0000ms, 0211ms total)
T21C8 002:647 JLINK_IsHalted()  returns FALSE (0000ms, 0211ms total)
T21C8 002:748 JLINK_IsHalted()  returns FALSE (0001ms, 0212ms total)
T21C8 002:849 JLINK_ReadMemU32(0xE0001004, 0x0001 Items, ...) -- CPU is running -- CPU_ReadMem(4 bytes @ 0xE0001004) -- Data:  7F 54 9B 00  returns 0x01 (0002ms, 0213ms total)
T1A30 002:851 JLINK_ReadMem (0x400D8000, 0x0050 Bytes, ...) -- CPU is running -- CPU_ReadMem(80 bytes @ 0x400D8000) -- Data:  00 02 10 80 00 01 00 00 00 00 40 10 00 08 11 04 ...  returns 0x00 (0003ms, 0216ms total)
T1A30 002:854 JLINK_ReadMem (0x400D8050, 0x0004 Bytes, ...) -- CPU is running -- CPU_ReadMem(4 bytes @ 0x400D8050) -- Data:  00 00 00 00  returns 0x00 (0001ms, 0217ms total)
T1A30 002:855 JLINK_ReadMem (0x40020000, 0x002C Bytes, ...) -- CPU is running -- CPU_ReadMem(44 bytes @ 0x40020000) -- Data:  00 00 00 00 00 00 00 00 00 00 00 00 00 00 00 00 ...  returns 0x00 (0003ms, 0220ms total)
T1A30 002:858 JLINK_ReadMem (0x4002002C, 0x0004 Bytes, ...) -- CPU is running -- CPU_ReadMem(4 bytes @ 0x4002002C) -- Data:  00 00 00 00  returns 0x00 (0000ms, 0220ms total)
T1A30 002:858 JLINK_ReadMem (0x400B8000, 0x001C Bytes, ...) -- CPU is running -- CPU_ReadMem(28 bytes @ 0x400B8000) -- Data:  FE FF 00 00 01 00 00 00 00 00 00 00 01 00 00 00 ...  returns 0x00 (0003ms, 0223ms total)
T1A30 002:861 JLINK_ReadMem (0x400B801C, 0x0004 Bytes, ...) -- CPU is running -- CPU_ReadMem(4 bytes @ 0x400B801C) -- Data:  00 00 00 00  returns 0x00 (0001ms, 0224ms total)
T21C8 002:862 JLINK_IsHalted()  returns FALSE (0000ms, 0224ms total)
T21C8 002:963 JLINK_IsHalted()  returns FALSE (0001ms, 0225ms total)
T21C8 003:065 JLINK_IsHalted()  returns FALSE (0001ms, 0225ms total)
T21C8 003:167 JLINK_IsHalted()  returns FALSE (0001ms, 0225ms total)
T21C8 003:268 JLINK_IsHalted()  returns FALSE (0001ms, 0225ms total)
T21C8 003:369 JLINK_ReadMemU32(0xE0001004, 0x0001 Items, ...) -- CPU is running -- CPU_ReadMem(4 bytes @ 0xE0001004) -- Data:  BC 6E CF 00  returns 0x01 (0001ms, 0225ms total)
T1A30 003:370 JLINK_ReadMem (0x400D8000, 0x0050 Bytes, ...) -- CPU is running -- CPU_ReadMem(80 bytes @ 0x400D8000) -- Data:  00 02 10 80 00 01 00 00 00 00 40 10 00 08 11 04 ...  returns 0x00 (0003ms, 0228ms total)
T1A30 003:373 JLINK_ReadMem (0x400D8050, 0x0004 Bytes, ...) -- CPU is running -- CPU_ReadMem(4 bytes @ 0x400D8050) -- Data:  00 00 00 00  returns 0x00 (0001ms, 0229ms total)
T1A30 003:374 JLINK_ReadMem (0x40020000, 0x002C Bytes, ...) -- CPU is running -- CPU_ReadMem(44 bytes @ 0x40020000) -- Data:  00 00 00 00 00 00 00 00 00 00 00 00 00 00 00 00 ...  returns 0x00 (0003ms, 0232ms total)
T1A30 003:377 JLINK_ReadMem (0x4002002C, 0x0004 Bytes, ...) -- CPU is running -- CPU_ReadMem(4 bytes @ 0x4002002C) -- Data:  00 00 00 00  returns 0x00 (0001ms, 0233ms total)
T1A30 003:378 JLINK_ReadMem (0x400B8000, 0x001C Bytes, ...) -- CPU is running -- CPU_ReadMem(28 bytes @ 0x400B8000) -- Data:  FE FF 00 00 01 00 00 00 00 00 00 00 01 00 00 00 ...  returns 0x00 (0002ms, 0235ms total)
T1A30 003:380 JLINK_ReadMem (0x400B801C, 0x0004 Bytes, ...) -- CPU is running -- CPU_ReadMem(4 bytes @ 0x400B801C) -- Data:  00 00 00 00  returns 0x00 (0002ms, 0237ms total)
T21C8 003:382 JLINK_IsHalted()  returns FALSE (0000ms, 0237ms total)
T21C8 003:483 JLINK_IsHalted()  returns FALSE (0001ms, 0238ms total)
T21C8 003:584 JLINK_IsHalted()  returns FALSE (0000ms, 0237ms total)
T21C8 003:685 JLINK_IsHalted()  returns FALSE (0001ms, 0238ms total)
T21C8 003:786 JLINK_IsHalted()  returns FALSE (0001ms, 0238ms total)
T21C8 003:887 JLINK_ReadMemU32(0xE0001004, 0x0001 Items, ...) -- CPU is running -- CPU_ReadMem(4 bytes @ 0xE0001004) -- Data:  9B 33 19 01  returns 0x01 (0001ms, 0238ms total)
T1A30 003:889 JLINK_ReadMem (0x400D8000, 0x0050 Bytes, ...) -- CPU is running -- CPU_ReadMem(80 bytes @ 0x400D8000) -- Data:  00 02 10 80 00 01 00 00 00 00 40 10 00 08 11 04 ...  returns 0x00 (0003ms, 0241ms total)
T1A30 003:892 JLINK_ReadMem (0x400D8050, 0x0004 Bytes, ...) -- CPU is running -- CPU_ReadMem(4 bytes @ 0x400D8050) -- Data:  00 00 00 00  returns 0x00 (0000ms, 0241ms total)
T1A30 003:893 JLINK_ReadMem (0x40020000, 0x002C Bytes, ...) -- CPU is running -- CPU_ReadMem(44 bytes @ 0x40020000) -- Data:  04 00 00 00 0C 01 00 00 01 00 00 00 06 01 00 00 ...  returns 0x00 (0002ms, 0243ms total)
T1A30 003:895 JLINK_ReadMem (0x4002002C, 0x0004 Bytes, ...) -- CPU is running -- CPU_ReadMem(4 bytes @ 0x4002002C) -- Data:  00 00 00 00  returns 0x00 (0001ms, 0244ms total)
T1A30 003:923 JLINK_ReadMem (0x400B8000, 0x001C Bytes, ...) -- CPU is running -- CPU_ReadMem(28 bytes @ 0x400B8000) -- Data:  FF FF 00 00 01 00 00 00 00 00 00 00 01 00 00 00 ...  returns 0x00 (0002ms, 0246ms total)
T1A30 003:925 JLINK_ReadMem (0x400B801C, 0x0004 Bytes, ...) -- CPU is running -- CPU_ReadMem(4 bytes @ 0x400B801C) -- Data:  00 00 00 00  returns 0x00 (0001ms, 0247ms total)
T21C8 003:926 JLINK_IsHalted()  returns FALSE (0001ms, 0248ms total)
T21C8 004:028 JLINK_IsHalted()  returns FALSE (0001ms, 0248ms total)
T21C8 004:129 JLINK_IsHalted()  returns FALSE (0000ms, 0247ms total)
T21C8 004:230 JLINK_IsHalted()  returns FALSE (0001ms, 0248ms total)
T21C8 004:332 JLINK_IsHalted()  returns FALSE (0001ms, 0248ms total)
T21C8 004:434 JLINK_ReadMemU32(0xE0001004, 0x0001 Items, ...) -- CPU is running -- CPU_ReadMem(4 bytes @ 0xE0001004) -- Data:  6D 8D 9E 01  returns 0x01 (0001ms, 0248ms total)
T1A30 004:436 JLINK_ReadMem (0x400D8000, 0x0050 Bytes, ...) -- CPU is running -- CPU_ReadMem(80 bytes @ 0x400D8000) -- Data:  00 02 10 80 00 01 00 00 00 00 40 10 00 08 11 04 ...  returns 0x00 (0002ms, 0250ms total)
T1A30 004:438 JLINK_ReadMem (0x400D8050, 0x0004 Bytes, ...) -- CPU is running -- CPU_ReadMem(4 bytes @ 0x400D8050) -- Data:  00 00 00 00  returns 0x00 (0001ms, 0251ms total)
T1A30 004:439 JLINK_ReadMem (0x40020000, 0x002C Bytes, ...) -- CPU is running -- CPU_ReadMem(44 bytes @ 0x40020000) -- Data:  04 00 00 00 0C 01 00 00 01 00 00 00 06 01 00 00 ...  returns 0x00 (0003ms, 0254ms total)
T1A30 004:442 JLINK_ReadMem (0x4002002C, 0x0004 Bytes, ...) -- CPU is running -- CPU_ReadMem(4 bytes @ 0x4002002C) -- Data:  00 00 00 00  returns 0x00 (0001ms, 0255ms total)
T1A30 004:443 JLINK_ReadMem (0x400B8000, 0x001C Bytes, ...) -- CPU is running -- CPU_ReadMem(28 bytes @ 0x400B8000) -- Data:  FE FF 00 00 01 00 00 00 00 00 00 00 01 00 00 00 ...  returns 0x00 (0002ms, 0257ms total)
T1A30 004:445 JLINK_ReadMem (0x400B801C, 0x0004 Bytes, ...) -- CPU is running -- CPU_ReadMem(4 bytes @ 0x400B801C) -- Data:  00 00 00 00  returns 0x00 (0001ms, 0258ms total)
T21C8 004:447 JLINK_IsHalted()  returns FALSE (0000ms, 0258ms total)
T21C8 004:548 JLINK_IsHalted()  returns FALSE (0001ms, 0259ms total)
T21C8 004:650 JLINK_IsHalted()  returns FALSE (0001ms, 0259ms total)
T21C8 004:752 JLINK_IsHalted()  returns TRUE (0005ms, 0263ms total)
T21C8 004:757 JLINK_Halt()  returns 0x00 (0000ms, 0258ms total)
T21C8 004:757 JLINK_IsHalted()  returns TRUE (0000ms, 0258ms total)
T21C8 004:757 JLINK_IsHalted()  returns TRUE (0000ms, 0258ms total)
T21C8 004:757 JLINK_IsHalted()  returns TRUE (0000ms, 0258ms total)
T21C8 004:757 JLINK_ReadReg(R15)  returns 0x0800041E (0000ms, 0258ms total)
T21C8 004:757 JLINK_ReadReg(XPSR)  returns 0x61000000 (0000ms, 0258ms total)
T21C8 004:757 JLINK_ClrBPEx(BPHandle = 0x00000003)  returns 0x00 (0000ms, 0258ms total)
T21C8 004:757 JLINK_ReadMemU32(0xE000ED30, 0x0001 Items, ...) -- CPU_ReadMem(4 bytes @ 0xE000ED30) -- Data:  0B 00 00 00  returns 0x01 (0001ms, 0259ms total)
T21C8 004:758 JLINK_ReadMemU32(0xE0001028, 0x0001 Items, ...) -- CPU_ReadMem(4 bytes @ 0xE0001028) -- Data:  00 00 00 00  returns 0x01 (0002ms, 0261ms total)
T21C8 004:760 JLINK_ReadMemU32(0xE0001038, 0x0001 Items, ...) -- CPU_ReadMem(4 bytes @ 0xE0001038) -- Data:  00 02 00 00  returns 0x01 (0001ms, 0262ms total)
T21C8 004:761 JLINK_ReadMemU32(0xE0001048, 0x0001 Items, ...) -- CPU_ReadMem(4 bytes @ 0xE0001048) -- Data:  00 00 00 00  returns 0x01 (0000ms, 0262ms total)
T21C8 004:761 JLINK_ReadMemU32(0xE0001058, 0x0001 Items, ...) -- CPU_ReadMem(4 bytes @ 0xE0001058) -- Data:  00 00 00 00  returns 0x01 (0002ms, 0264ms total)
T21C8 004:763 JLINK_ReadReg(R0)  returns 0x000003E8 (0000ms, 0264ms total)
T21C8 004:763 JLINK_ReadReg(R1)  returns 0x00000000 (0000ms, 0264ms total)
T21C8 004:763 JLINK_ReadReg(R2)  returns 0x40020000 (0000ms, 0264ms total)
T21C8 004:763 JLINK_ReadReg(R3)  returns 0x00000004 (0000ms, 0264ms total)
T21C8 004:763 JLINK_ReadReg(R4)  returns 0x00000001 (0000ms, 0264ms total)
T21C8 004:763 JLINK_ReadReg(R5)  returns 0x20000008 (0000ms, 0264ms total)
T21C8 004:763 JLINK_ReadReg(R6)  returns 0x00000000 (0000ms, 0264ms total)
T21C8 004:763 JLINK_ReadReg(R7)  returns 0x00000000 (0000ms, 0264ms total)
T21C8 004:763 JLINK_ReadReg(R8)  returns 0x00000000 (0000ms, 0264ms total)
T21C8 004:763 JLINK_ReadReg(R9)  returns 0x00000000 (0000ms, 0264ms total)
T21C8 004:763 JLINK_ReadReg(R10)  returns 0x0800045C (0000ms, 0264ms total)
T21C8 004:763 JLINK_ReadReg(R11)  returns 0x00000000 (0000ms, 0264ms total)
T21C8 004:763 JLINK_ReadReg(R12)  returns 0x20000048 (0000ms, 0264ms total)
T21C8 004:763 JLINK_ReadReg(R13)  returns 0x20000668 (0000ms, 0264ms total)
T21C8 004:763 JLINK_ReadReg(R14)  returns 0x0800041F (0000ms, 0264ms total)
T21C8 004:763 JLINK_ReadReg(R15)  returns 0x0800041E (0000ms, 0264ms total)
T21C8 004:763 JLINK_ReadReg(XPSR)  returns 0x61000000 (0000ms, 0264ms total)
T21C8 004:763 JLINK_ReadReg(MSP)  returns 0x20000668 (0000ms, 0264ms total)
T21C8 004:763 JLINK_ReadReg(PSP)  returns 0x00000000 (0000ms, 0264ms total)
T21C8 004:763 JLINK_ReadReg(CFBP)  returns 0x00000000 (0000ms, 0264ms total)
T1A30 004:763 JLINK_ReadMemU32(0xE0001004, 0x0001 Items, ...) -- CPU_ReadMem(4 bytes @ 0xE0001004) -- Data:  36 4E E8 01  returns 0x01 (0001ms, 0265ms total)
T1A30 004:765 JLINK_ReadMem (0x400D8000, 0x0050 Bytes, ...) -- CPU_ReadMem(80 bytes @ 0x400D8000) -- Data:  00 02 10 80 00 01 00 00 00 00 40 10 00 08 11 04 ...  returns 0x00 (0003ms, 0268ms total)
T1A30 004:768 JLINK_ReadMem (0x400D8050, 0x0004 Bytes, ...) -- CPU_ReadMem(4 bytes @ 0x400D8050) -- Data:  00 00 00 00  returns 0x00 (0001ms, 0269ms total)
T1A30 004:769 JLINK_ReadMem (0x40020000, 0x002C Bytes, ...) -- CPU_ReadMem(44 bytes @ 0x40020000) -- Data:  04 00 00 00 0C 01 00 00 01 00 00 00 06 01 00 00 ...  returns 0x00 (0002ms, 0271ms total)
T1A30 004:771 JLINK_ReadMem (0x4002002C, 0x0004 Bytes, ...) -- CPU_ReadMem(4 bytes @ 0x4002002C) -- Data:  00 00 00 00  returns 0x00 (0002ms, 0273ms total)
T1A30 004:773 JLINK_ReadMem (0x400B8000, 0x001C Bytes, ...) -- CPU_ReadMem(28 bytes @ 0x400B8000) -- Data:  FE FF 00 00 01 00 00 00 00 00 00 00 01 00 00 00 ...  returns 0x00 (0001ms, 0274ms total)
T1A30 004:774 JLINK_ReadMem (0x400B801C, 0x0004 Bytes, ...) -- CPU_ReadMem(4 bytes @ 0x400B801C) -- Data:  00 00 00 00  returns 0x00 (0001ms, 0275ms total)
T1A30 004:778 JLINK_ReadMem (0x0800041E, 0x0002 Bytes, ...) -- CPU_ReadMem(64 bytes @ 0x08000400) -- Updating DA cache (64 bytes @ 0x08000400) -- Read from DA cache (2 bytes @ 0x0800041E) -- Data:  0A 2C  returns 0x00 (0002ms, 0277ms total)
T1A30 004:780 JLINK_ReadMem (0x08000420, 0x003C Bytes, ...) -- CPU_ReadMem(64 bytes @ 0x08000440) -- Updating DA cache (64 bytes @ 0x08000440) -- Read from DA cache (60 bytes @ 0x08000420) -- Data:  02 DA 60 1C C4 B2 00 E0 01 24 20 46 FF F7 10 FF ...  returns 0x00 (0002ms, 0279ms total)
T21C8 005:166 JLINK_Step() -- Read from DA cache (2 bytes @ 0x0800041E) -- Simulated  returns 0x00 (0000ms, 0279ms total)
T21C8 005:166 JLINK_ReadReg(R15)  returns 0x08000420 (0000ms, 0279ms total)
T21C8 005:166 JLINK_ReadReg(XPSR)  returns 0x81000000 (0000ms, 0279ms total)
T21C8 005:166 JLINK_SetBPEx(Addr = 0x0800041E, Type = 0xFFFFFFF2)  returns 0x00000004 (0000ms, 0279ms total)
T21C8 005:166 JLINK_Go() (0002ms, 0281ms total)
T21C8 005:270 JLINK_IsHalted()  returns FALSE (0001ms, 0282ms total)
T21C8 005:372 JLINK_IsHalted()  returns FALSE (0001ms, 0282ms total)
T21C8 005:473 JLINK_IsHalted()  returns FALSE (0001ms, 0282ms total)
T21C8 005:574 JLINK_IsHalted()  returns FALSE (0001ms, 0282ms total)
T21C8 005:675 JLINK_IsHalted()  returns FALSE (0001ms, 0282ms total)
T21C8 005:777 JLINK_ReadMemU32(0xE0001004, 0x0001 Items, ...) -- CPU is running -- CPU_ReadMem(4 bytes @ 0xE0001004) -- Data:  67 0B 7D 02  returns 0x01 (0001ms, 0282ms total)
T1A30 005:779 JLINK_ReadMem (0x400D8000, 0x0050 Bytes, ...) -- CPU is running -- CPU_ReadMem(80 bytes @ 0x400D8000) -- Data:  00 02 10 80 00 01 00 00 00 00 40 10 00 08 11 04 ...  returns 0x00 (0002ms, 0284ms total)
T1A30 005:781 JLINK_ReadMem (0x400D8050, 0x0004 Bytes, ...) -- CPU is running -- CPU_ReadMem(4 bytes @ 0x400D8050) -- Data:  00 00 00 00  returns 0x00 (0001ms, 0285ms total)
T1A30 005:783 JLINK_ReadMem (0x40020000, 0x002C Bytes, ...) -- CPU is running -- CPU_ReadMem(44 bytes @ 0x40020000) -- Data:  04 00 00 00 0C 01 00 00 01 00 00 00 06 01 00 00 ...  returns 0x00 (0001ms, 0286ms total)
T1A30 005:784 JLINK_ReadMem (0x4002002C, 0x0004 Bytes, ...) -- CPU is running -- CPU_ReadMem(4 bytes @ 0x4002002C) -- Data:  00 00 00 00  returns 0x00 (0001ms, 0287ms total)
T1A30 005:786 JLINK_ReadMem (0x400B8000, 0x001C Bytes, ...) -- CPU is running -- CPU_ReadMem(28 bytes @ 0x400B8000) -- Data:  FE FF 00 00 01 00 00 00 00 00 00 00 01 00 00 00 ...  returns 0x00 (0001ms, 0288ms total)
T1A30 005:787 JLINK_ReadMem (0x400B801C, 0x0004 Bytes, ...) -- CPU is running -- CPU_ReadMem(4 bytes @ 0x400B801C) -- Data:  00 00 00 00  returns 0x00 (0001ms, 0289ms total)
T21C8 005:788 JLINK_IsHalted()  returns FALSE (0001ms, 0290ms total)
T21C8 005:890 JLINK_IsHalted()  returns FALSE (0000ms, 0289ms total)
T21C8 005:991 JLINK_IsHalted()  returns FALSE (0001ms, 0290ms total)
T21C8 006:092 JLINK_IsHalted()  returns FALSE (0001ms, 0290ms total)
T21C8 006:193 JLINK_IsHalted()  returns TRUE (0006ms, 0295ms total)
T21C8 006:199 JLINK_Halt()  returns 0x00 (0000ms, 0289ms total)
T21C8 006:199 JLINK_IsHalted()  returns TRUE (0000ms, 0289ms total)
T21C8 006:199 JLINK_IsHalted()  returns TRUE (0000ms, 0289ms total)
T21C8 006:199 JLINK_IsHalted()  returns TRUE (0000ms, 0289ms total)
T21C8 006:199 JLINK_ReadReg(R15)  returns 0x0800041E (0000ms, 0289ms total)
T21C8 006:199 JLINK_ReadReg(XPSR)  returns 0x61000000 (0000ms, 0289ms total)
T21C8 006:199 JLINK_ClrBPEx(BPHandle = 0x00000004)  returns 0x00 (0000ms, 0289ms total)
T21C8 006:199 JLINK_ReadMemU32(0xE000ED30, 0x0001 Items, ...) -- CPU_ReadMem(4 bytes @ 0xE000ED30) -- Data:  0B 00 00 00  returns 0x01 (0001ms, 0290ms total)
T21C8 006:200 JLINK_ReadMemU32(0xE0001028, 0x0001 Items, ...) -- CPU_ReadMem(4 bytes @ 0xE0001028) -- Data:  00 00 00 00  returns 0x01 (0001ms, 0291ms total)
T21C8 006:201 JLINK_ReadMemU32(0xE0001038, 0x0001 Items, ...) -- CPU_ReadMem(4 bytes @ 0xE0001038) -- Data:  00 02 00 00  returns 0x01 (0001ms, 0292ms total)
T21C8 006:202 JLINK_ReadMemU32(0xE0001048, 0x0001 Items, ...) -- CPU_ReadMem(4 bytes @ 0xE0001048) -- Data:  00 00 00 00  returns 0x01 (0002ms, 0294ms total)
T21C8 006:204 JLINK_ReadMemU32(0xE0001058, 0x0001 Items, ...) -- CPU_ReadMem(4 bytes @ 0xE0001058) -- Data:  00 00 00 00  returns 0x01 (0001ms, 0295ms total)
T21C8 006:205 JLINK_ReadReg(R0)  returns 0x000003E8 (0000ms, 0295ms total)
T21C8 006:205 JLINK_ReadReg(R1)  returns 0x00000000 (0000ms, 0295ms total)
T21C8 006:205 JLINK_ReadReg(R2)  returns 0x40020000 (0000ms, 0295ms total)
T21C8 006:205 JLINK_ReadReg(R3)  returns 0x00000004 (0000ms, 0295ms total)
T21C8 006:205 JLINK_ReadReg(R4)  returns 0x00000002 (0000ms, 0295ms total)
T21C8 006:205 JLINK_ReadReg(R5)  returns 0x20000008 (0000ms, 0295ms total)
T21C8 006:205 JLINK_ReadReg(R6)  returns 0x00000000 (0000ms, 0295ms total)
T21C8 006:205 JLINK_ReadReg(R7)  returns 0x00000000 (0000ms, 0295ms total)
T21C8 006:205 JLINK_ReadReg(R8)  returns 0x00000000 (0000ms, 0295ms total)
T21C8 006:205 JLINK_ReadReg(R9)  returns 0x00000000 (0000ms, 0295ms total)
T21C8 006:205 JLINK_ReadReg(R10)  returns 0x0800045C (0000ms, 0295ms total)
T21C8 006:205 JLINK_ReadReg(R11)  returns 0x00000000 (0000ms, 0295ms total)
T21C8 006:205 JLINK_ReadReg(R12)  returns 0x20000048 (0000ms, 0295ms total)
T21C8 006:205 JLINK_ReadReg(R13)  returns 0x20000668 (0000ms, 0295ms total)
T21C8 006:205 JLINK_ReadReg(R14)  returns 0x0800041F (0000ms, 0295ms total)
T21C8 006:205 JLINK_ReadReg(R15)  returns 0x0800041E (0000ms, 0295ms total)
T21C8 006:205 JLINK_ReadReg(XPSR)  returns 0x61000000 (0000ms, 0295ms total)
T21C8 006:205 JLINK_ReadReg(MSP)  returns 0x20000668 (0000ms, 0295ms total)
T21C8 006:205 JLINK_ReadReg(PSP)  returns 0x00000000 (0000ms, 0295ms total)
T21C8 006:205 JLINK_ReadReg(CFBP)  returns 0x00000000 (0000ms, 0295ms total)
T1A30 006:206 JLINK_ReadMemU32(0xE0001004, 0x0001 Items, ...) -- CPU_ReadMem(4 bytes @ 0xE0001004) -- Data:  32 72 DC 02  returns 0x01 (0001ms, 0296ms total)
T1A30 006:208 JLINK_ReadMem (0x400D8000, 0x0050 Bytes, ...) -- CPU_ReadMem(80 bytes @ 0x400D8000) -- Data:  00 02 10 80 00 01 00 00 00 00 40 10 00 08 11 04 ...  returns 0x00 (0003ms, 0299ms total)
T1A30 006:211 JLINK_ReadMem (0x400D8050, 0x0004 Bytes, ...) -- CPU_ReadMem(4 bytes @ 0x400D8050) -- Data:  00 00 00 00  returns 0x00 (0001ms, 0300ms total)
T1A30 006:212 JLINK_ReadMem (0x40020000, 0x002C Bytes, ...) -- CPU_ReadMem(44 bytes @ 0x40020000) -- Data:  04 00 00 00 0C 01 00 00 01 00 00 00 06 01 00 00 ...  returns 0x00 (0002ms, 0302ms total)
T1A30 006:214 JLINK_ReadMem (0x4002002C, 0x0004 Bytes, ...) -- CPU_ReadMem(4 bytes @ 0x4002002C) -- Data:  00 00 00 00  returns 0x00 (0001ms, 0303ms total)
T1A30 006:215 JLINK_ReadMem (0x400B8000, 0x001C Bytes, ...) -- CPU_ReadMem(28 bytes @ 0x400B8000) -- Data:  FE FF 00 00 01 00 00 00 00 00 00 00 01 00 00 00 ...  returns 0x00 (0001ms, 0304ms total)
T1A30 006:216 JLINK_ReadMem (0x400B801C, 0x0004 Bytes, ...) -- CPU_ReadMem(4 bytes @ 0x400B801C) -- Data:  00 00 00 00  returns 0x00 (0001ms, 0305ms total)
T21C8 008:210 JLINK_Step() -- CPU_ReadMem(64 bytes @ 0x08000400) -- Updating DA cache (64 bytes @ 0x08000400) -- Read from DA cache (2 bytes @ 0x0800041E) -- Simulated  returns 0x00 (0003ms, 0308ms total)
T21C8 008:213 JLINK_ReadReg(R15)  returns 0x08000420 (0000ms, 0308ms total)
T21C8 008:213 JLINK_ReadReg(XPSR)  returns 0x81000000 (0000ms, 0308ms total)
T21C8 008:213 JLINK_SetBPEx(Addr = 0x0800041E, Type = 0xFFFFFFF2)  returns 0x00000005 (0000ms, 0308ms total)
T21C8 008:213 JLINK_Go() (0003ms, 0311ms total)
T21C8 008:316 JLINK_IsHalted()  returns FALSE (0001ms, 0312ms total)
T21C8 008:418 JLINK_IsHalted()  returns FALSE (0001ms, 0312ms total)
T21C8 008:519 JLINK_IsHalted()  returns FALSE (0001ms, 0312ms total)
T21C8 008:620 JLINK_IsHalted()  returns FALSE (0001ms, 0312ms total)
T21C8 008:722 JLINK_IsHalted()  returns FALSE (0001ms, 0312ms total)
T21C8 008:824 JLINK_ReadMemU32(0xE0001004, 0x0001 Items, ...) -- CPU is running -- CPU_ReadMem(4 bytes @ 0xE0001004) -- Data:  DE 64 BB 03  returns 0x01 (0001ms, 0312ms total)
T1A30 008:825 JLINK_ReadMem (0x400D8000, 0x0050 Bytes, ...) -- CPU is running -- CPU_ReadMem(80 bytes @ 0x400D8000) -- Data:  00 02 10 80 00 01 00 00 00 00 40 10 00 08 11 04 ...  returns 0x00 (0003ms, 0315ms total)
T1A30 008:828 JLINK_ReadMem (0x400D8050, 0x0004 Bytes, ...) -- CPU is running -- CPU_ReadMem(4 bytes @ 0x400D8050) -- Data:  00 00 00 00  returns 0x00 (0001ms, 0316ms total)
T1A30 008:829 JLINK_ReadMem (0x40020000, 0x002C Bytes, ...) -- CPU is running -- CPU_ReadMem(44 bytes @ 0x40020000) -- Data:  04 00 00 00 0C 02 00 00 01 00 00 00 06 01 00 00 ...  returns 0x00 (0002ms, 0318ms total)
T1A30 008:831 JLINK_ReadMem (0x4002002C, 0x0004 Bytes, ...) -- CPU is running -- CPU_ReadMem(4 bytes @ 0x4002002C) -- Data:  00 00 00 00  returns 0x00 (0002ms, 0320ms total)
T1A30 008:852 JLINK_ReadMem (0x400B8000, 0x001C Bytes, ...) -- CPU is running -- CPU_ReadMem(28 bytes @ 0x400B8000) -- Data:  FE FF 00 00 01 00 00 00 00 00 00 00 01 00 00 00 ...  returns 0x00 (0003ms, 0323ms total)
T1A30 008:855 JLINK_ReadMem (0x400B801C, 0x0004 Bytes, ...) -- CPU is running -- CPU_ReadMem(4 bytes @ 0x400B801C) -- Data:  00 00 00 00  returns 0x00 (0000ms, 0323ms total)
T21C8 008:855 JLINK_IsHalted()  returns FALSE (0001ms, 0324ms total)
T21C8 008:957 JLINK_IsHalted()  returns TRUE (0005ms, 0328ms total)
T21C8 008:962 JLINK_Halt()  returns 0x00 (0000ms, 0323ms total)
T21C8 008:962 JLINK_IsHalted()  returns TRUE (0000ms, 0323ms total)
T21C8 008:962 JLINK_IsHalted()  returns TRUE (0000ms, 0323ms total)
T21C8 008:962 JLINK_IsHalted()  returns TRUE (0000ms, 0323ms total)
T21C8 008:962 JLINK_ReadReg(R15)  returns 0x0800041E (0000ms, 0323ms total)
T21C8 008:962 JLINK_ReadReg(XPSR)  returns 0x61000000 (0001ms, 0324ms total)
T21C8 008:963 JLINK_ClrBPEx(BPHandle = 0x00000005)  returns 0x00 (0000ms, 0324ms total)
T21C8 008:963 JLINK_ReadMemU32(0xE000ED30, 0x0001 Items, ...) -- CPU_ReadMem(4 bytes @ 0xE000ED30) -- Data:  0B 00 00 00  returns 0x01 (0000ms, 0324ms total)
T21C8 008:963 JLINK_ReadMemU32(0xE0001028, 0x0001 Items, ...) -- CPU_ReadMem(4 bytes @ 0xE0001028) -- Data:  00 00 00 00  returns 0x01 (0002ms, 0326ms total)
T21C8 008:965 JLINK_ReadMemU32(0xE0001038, 0x0001 Items, ...) -- CPU_ReadMem(4 bytes @ 0xE0001038) -- Data:  00 02 00 00  returns 0x01 (0001ms, 0327ms total)
T21C8 008:966 JLINK_ReadMemU32(0xE0001048, 0x0001 Items, ...) -- CPU_ReadMem(4 bytes @ 0xE0001048) -- Data:  00 00 00 00  returns 0x01 (0002ms, 0329ms total)
T21C8 008:968 JLINK_ReadMemU32(0xE0001058, 0x0001 Items, ...) -- CPU_ReadMem(4 bytes @ 0xE0001058) -- Data:  00 00 00 00  returns 0x01 (0001ms, 0330ms total)
T21C8 008:969 JLINK_ReadReg(R0)  returns 0x000003E8 (0000ms, 0330ms total)
T21C8 008:969 JLINK_ReadReg(R1)  returns 0x00000000 (0000ms, 0330ms total)
T21C8 008:969 JLINK_ReadReg(R2)  returns 0x40020000 (0000ms, 0330ms total)
T21C8 008:969 JLINK_ReadReg(R3)  returns 0x00000004 (0000ms, 0330ms total)
T21C8 008:969 JLINK_ReadReg(R4)  returns 0x00000003 (0000ms, 0330ms total)
T21C8 008:969 JLINK_ReadReg(R5)  returns 0x20000008 (0000ms, 0330ms total)
T21C8 008:969 JLINK_ReadReg(R6)  returns 0x00000000 (0000ms, 0330ms total)
T21C8 008:969 JLINK_ReadReg(R7)  returns 0x00000000 (0000ms, 0330ms total)
T21C8 008:969 JLINK_ReadReg(R8)  returns 0x00000000 (0000ms, 0330ms total)
T21C8 008:969 JLINK_ReadReg(R9)  returns 0x00000000 (0000ms, 0330ms total)
T21C8 008:969 JLINK_ReadReg(R10)  returns 0x0800045C (0000ms, 0330ms total)
T21C8 008:969 JLINK_ReadReg(R11)  returns 0x00000000 (0000ms, 0330ms total)
T21C8 008:969 JLINK_ReadReg(R12)  returns 0x20000048 (0000ms, 0330ms total)
T21C8 008:969 JLINK_ReadReg(R13)  returns 0x20000668 (0000ms, 0330ms total)
T21C8 008:969 JLINK_ReadReg(R14)  returns 0x0800041F (0000ms, 0330ms total)
T21C8 008:969 JLINK_ReadReg(R15)  returns 0x0800041E (0000ms, 0330ms total)
T21C8 008:969 JLINK_ReadReg(XPSR)  returns 0x61000000 (0000ms, 0330ms total)
T21C8 008:969 JLINK_ReadReg(MSP)  returns 0x20000668 (0000ms, 0330ms total)
T21C8 008:969 JLINK_ReadReg(PSP)  returns 0x00000000 (0000ms, 0330ms total)
T21C8 008:969 JLINK_ReadReg(CFBP)  returns 0x00000000 (0000ms, 0330ms total)
T1A30 008:969 JLINK_ReadMemU32(0xE0001004, 0x0001 Items, ...) -- CPU_ReadMem(4 bytes @ 0xE0001004) -- Data:  2A 96 D0 03  returns 0x01 (0002ms, 0332ms total)
T1A30 008:972 JLINK_ReadMem (0x400D8000, 0x0050 Bytes, ...) -- CPU_ReadMem(80 bytes @ 0x400D8000) -- Data:  00 02 10 80 00 01 00 00 00 00 40 10 00 08 11 04 ...  returns 0x00 (0002ms, 0334ms total)
T1A30 008:974 JLINK_ReadMem (0x400D8050, 0x0004 Bytes, ...) -- CPU_ReadMem(4 bytes @ 0x400D8050) -- Data:  00 00 00 00  returns 0x00 (0001ms, 0335ms total)
T1A30 008:975 JLINK_ReadMem (0x40020000, 0x002C Bytes, ...) -- CPU_ReadMem(44 bytes @ 0x40020000) -- Data:  04 00 00 00 0C 02 00 00 01 00 00 00 06 01 00 00 ...  returns 0x00 (0002ms, 0337ms total)
T1A30 008:977 JLINK_ReadMem (0x4002002C, 0x0004 Bytes, ...) -- CPU_ReadMem(4 bytes @ 0x4002002C) -- Data:  00 00 00 00  returns 0x00 (0001ms, 0338ms total)
T1A30 008:978 JLINK_ReadMem (0x400B8000, 0x001C Bytes, ...) -- CPU_ReadMem(28 bytes @ 0x400B8000) -- Data:  FE FF 00 00 01 00 00 00 00 00 00 00 01 00 00 00 ...  returns 0x00 (0002ms, 0340ms total)
T1A30 008:980 JLINK_ReadMem (0x400B801C, 0x0004 Bytes, ...) -- CPU_ReadMem(4 bytes @ 0x400B801C) -- Data:  00 00 00 00  returns 0x00 (0001ms, 0341ms total)
T21C8 018:532 JLINK_Step() -- CPU_ReadMem(64 bytes @ 0x08000400) -- Updating DA cache (64 bytes @ 0x08000400) -- Read from DA cache (2 bytes @ 0x0800041E) -- Simulated  returns 0x00 (0002ms, 0343ms total)
T21C8 018:534 JLINK_ReadReg(R15)  returns 0x08000420 (0000ms, 0343ms total)
T21C8 018:534 JLINK_ReadReg(XPSR)  returns 0x81000000 (0000ms, 0343ms total)
T21C8 018:534 JLINK_SetBPEx(Addr = 0x0800041E, Type = 0xFFFFFFF2)  returns 0x00000006 (0001ms, 0344ms total)
T21C8 018:535 JLINK_Go() (0002ms, 0346ms total)
T21C8 018:637 JLINK_IsHalted()  returns FALSE (0001ms, 0347ms total)
T21C8 018:738 JLINK_IsHalted()  returns FALSE (0001ms, 0347ms total)
T21C8 018:840 JLINK_IsHalted()  returns FALSE (0000ms, 0346ms total)
T21C8 018:941 JLINK_IsHalted()  returns FALSE (0001ms, 0347ms total)
T21C8 019:042 JLINK_IsHalted()  returns TRUE (0005ms, 0351ms total)
T21C8 019:047 JLINK_Halt()  returns 0x00 (0000ms, 0346ms total)
T21C8 019:047 JLINK_IsHalted()  returns TRUE (0000ms, 0346ms total)
T21C8 019:047 JLINK_IsHalted()  returns TRUE (0000ms, 0346ms total)
T21C8 019:047 JLINK_IsHalted()  returns TRUE (0000ms, 0346ms total)
T21C8 019:047 JLINK_ReadReg(R15)  returns 0x0800041E (0000ms, 0346ms total)
T21C8 019:047 JLINK_ReadReg(XPSR)  returns 0x61000000 (0000ms, 0346ms total)
T21C8 019:047 JLINK_ClrBPEx(BPHandle = 0x00000006)  returns 0x00 (0000ms, 0346ms total)
T21C8 019:047 JLINK_ReadMemU32(0xE000ED30, 0x0001 Items, ...) -- CPU_ReadMem(4 bytes @ 0xE000ED30) -- Data:  0B 00 00 00  returns 0x01 (0002ms, 0348ms total)
T21C8 019:049 JLINK_ReadMemU32(0xE0001028, 0x0001 Items, ...) -- CPU_ReadMem(4 bytes @ 0xE0001028) -- Data:  00 00 00 00  returns 0x01 (0001ms, 0349ms total)
T21C8 019:050 JLINK_ReadMemU32(0xE0001038, 0x0001 Items, ...) -- CPU_ReadMem(4 bytes @ 0xE0001038) -- Data:  00 02 00 00  returns 0x01 (0002ms, 0351ms total)
T21C8 019:052 JLINK_ReadMemU32(0xE0001048, 0x0001 Items, ...) -- CPU_ReadMem(4 bytes @ 0xE0001048) -- Data:  00 00 00 00  returns 0x01 (0001ms, 0352ms total)
T21C8 019:053 JLINK_ReadMemU32(0xE0001058, 0x0001 Items, ...) -- CPU_ReadMem(4 bytes @ 0xE0001058) -- Data:  00 00 00 00  returns 0x01 (0001ms, 0353ms total)
T21C8 019:054 JLINK_ReadReg(R0)  returns 0x000003E8 (0000ms, 0353ms total)
T21C8 019:054 JLINK_ReadReg(R1)  returns 0x00000000 (0000ms, 0353ms total)
T21C8 019:054 JLINK_ReadReg(R2)  returns 0x40020000 (0000ms, 0353ms total)
T21C8 019:054 JLINK_ReadReg(R3)  returns 0x00000004 (0000ms, 0353ms total)
T21C8 019:054 JLINK_ReadReg(R4)  returns 0x00000004 (0000ms, 0353ms total)
T21C8 019:054 JLINK_ReadReg(R5)  returns 0x20000008 (0000ms, 0353ms total)
T21C8 019:054 JLINK_ReadReg(R6)  returns 0x00000000 (0000ms, 0353ms total)
T21C8 019:054 JLINK_ReadReg(R7)  returns 0x00000000 (0000ms, 0353ms total)
T21C8 019:054 JLINK_ReadReg(R8)  returns 0x00000000 (0000ms, 0353ms total)
T21C8 019:054 JLINK_ReadReg(R9)  returns 0x00000000 (0000ms, 0353ms total)
T21C8 019:054 JLINK_ReadReg(R10)  returns 0x0800045C (0000ms, 0353ms total)
T21C8 019:054 JLINK_ReadReg(R11)  returns 0x00000000 (0000ms, 0353ms total)
T21C8 019:054 JLINK_ReadReg(R12)  returns 0x20000048 (0000ms, 0353ms total)
T21C8 019:054 JLINK_ReadReg(R13)  returns 0x20000668 (0000ms, 0353ms total)
T21C8 019:054 JLINK_ReadReg(R14)  returns 0x0800041F (0000ms, 0353ms total)
T21C8 019:054 JLINK_ReadReg(R15)  returns 0x0800041E (0000ms, 0353ms total)
T21C8 019:054 JLINK_ReadReg(XPSR)  returns 0x61000000 (0000ms, 0353ms total)
T21C8 019:054 JLINK_ReadReg(MSP)  returns 0x20000668 (0000ms, 0353ms total)
T21C8 019:054 JLINK_ReadReg(PSP)  returns 0x00000000 (0000ms, 0353ms total)
T21C8 019:054 JLINK_ReadReg(CFBP)  returns 0x00000000 (0000ms, 0353ms total)
T1A30 019:055 JLINK_ReadMemU32(0xE0001004, 0x0001 Items, ...) -- CPU_ReadMem(4 bytes @ 0xE0001004) -- Data:  24 BA C4 04  returns 0x01 (0002ms, 0355ms total)
T1A30 019:058 JLINK_ReadMem (0x400D8000, 0x0050 Bytes, ...) -- CPU_ReadMem(80 bytes @ 0x400D8000) -- Data:  00 02 10 80 00 01 00 00 00 00 40 10 00 08 11 04 ...  returns 0x00 (0002ms, 0357ms total)
T1A30 019:060 JLINK_ReadMem (0x400D8050, 0x0004 Bytes, ...) -- CPU_ReadMem(4 bytes @ 0x400D8050) -- Data:  00 00 00 00  returns 0x00 (0001ms, 0358ms total)
T1A30 019:061 JLINK_ReadMem (0x40020000, 0x002C Bytes, ...) -- CPU_ReadMem(44 bytes @ 0x40020000) -- Data:  04 00 00 00 0C 03 00 00 01 00 00 00 06 01 00 00 ...  returns 0x00 (0002ms, 0360ms total)
T1A30 019:063 JLINK_ReadMem (0x4002002C, 0x0004 Bytes, ...) -- CPU_ReadMem(4 bytes @ 0x4002002C) -- Data:  00 00 00 00  returns 0x00 (0002ms, 0362ms total)
T1A30 019:083 JLINK_ReadMem (0x400B8000, 0x001C Bytes, ...) -- CPU_ReadMem(28 bytes @ 0x400B8000) -- Data:  FE FF 00 00 01 00 00 00 00 00 00 00 01 00 00 00 ...  returns 0x00 (0002ms, 0364ms total)
T1A30 019:085 JLINK_ReadMem (0x400B801C, 0x0004 Bytes, ...) -- CPU_ReadMem(4 bytes @ 0x400B801C) -- Data:  00 00 00 00  returns 0x00 (0001ms, 0365ms total)
T21C8 020:744 JLINK_Step() -- CPU_ReadMem(64 bytes @ 0x08000400) -- Updating DA cache (64 bytes @ 0x08000400) -- Read from DA cache (2 bytes @ 0x0800041E) -- Simulated  returns 0x00 (0003ms, 0368ms total)
T21C8 020:747 JLINK_ReadReg(R15)  returns 0x08000420 (0000ms, 0368ms total)
T21C8 020:747 JLINK_ReadReg(XPSR)  returns 0x81000000 (0000ms, 0368ms total)
T21C8 020:747 JLINK_SetBPEx(Addr = 0x0800041E, Type = 0xFFFFFFF2)  returns 0x00000007 (0000ms, 0368ms total)
T21C8 020:747 JLINK_Go() (0003ms, 0371ms total)
T21C8 020:851 JLINK_IsHalted()  returns FALSE (0001ms, 0372ms total)
T21C8 020:953 JLINK_IsHalted()  returns FALSE (0001ms, 0372ms total)
T21C8 021:055 JLINK_IsHalted()  returns FALSE (0001ms, 0372ms total)
T21C8 021:156 JLINK_IsHalted()  returns TRUE (0006ms, 0377ms total)
T21C8 021:162 JLINK_Halt()  returns 0x00 (0000ms, 0371ms total)
T21C8 021:162 JLINK_IsHalted()  returns TRUE (0000ms, 0371ms total)
T21C8 021:162 JLINK_IsHalted()  returns TRUE (0000ms, 0371ms total)
T21C8 021:162 JLINK_IsHalted()  returns TRUE (0000ms, 0371ms total)
T21C8 021:162 JLINK_ReadReg(R15)  returns 0x0800041E (0000ms, 0371ms total)
T21C8 021:162 JLINK_ReadReg(XPSR)  returns 0x61000000 (0000ms, 0371ms total)
T21C8 021:162 JLINK_ClrBPEx(BPHandle = 0x00000007)  returns 0x00 (0000ms, 0371ms total)
T21C8 021:162 JLINK_ReadMemU32(0xE000ED30, 0x0001 Items, ...) -- CPU_ReadMem(4 bytes @ 0xE000ED30) -- Data:  0B 00 00 00  returns 0x01 (0001ms, 0372ms total)
T21C8 021:163 JLINK_ReadMemU32(0xE0001028, 0x0001 Items, ...) -- CPU_ReadMem(4 bytes @ 0xE0001028) -- Data:  00 00 00 00  returns 0x01 (0001ms, 0373ms total)
T21C8 021:164 JLINK_ReadMemU32(0xE0001038, 0x0001 Items, ...) -- CPU_ReadMem(4 bytes @ 0xE0001038) -- Data:  00 02 00 00  returns 0x01 (0001ms, 0374ms total)
